T261C 2404:189 SEGGER J-Link V6.30h Log File (0001ms, 13075ms total)
T261C 2404:189 DLL Compiled: Mar 16 2018 18:02:51 (0001ms, 13075ms total)
T261C 2404:189 Logging started @ 2018-04-06 10:22 (0001ms, 13075ms total)
T261C 2404:190 JLINK_SetWarnOutHandler(...) (0001ms, 13076ms total)
T261C 2404:191 JLINK_OpenEx(...)
Firmware: J-Link OB-SAM3U128 V3 compiled Sep 21 2017 14:14:50
Hardware: V3.00
S/N: 483028106
TELNET listener socket opened on port 19021Device "AMAPH1KK-KBR" selected.WEBSRV 
Starting webserver (0191ms, 13267ms total)
T261C 2404:191 WEBSRV Webserver running on local port 19081 (0192ms, 13268ms total)
T261C 2404:191   returns O.K. (0192ms, 13268ms total)
T261C 2404:383 JLINK_GetEmuCaps()  returns 0xB9FA5A37 (0000ms, 13268ms total)
T261C 2404:384 JLINK_TIF_GetAvailable(...) (0001ms, 13269ms total)
T261C 2404:385 JLINK_SetErrorOutHandler(...) (0000ms, 13269ms total)
T261C 2404:385 JLINK_ExecCommand("ProjectFile = "C:\Users\Moritz Scherer\Documents\Algorithmus\OnBoard_Test\JLinkSettings.ini"", ...). Device "AMAPH1KK-KBR" selected.  returns 0x00 (0011ms, 13280ms total)
T261C 2404:400 JLINK_ExecCommand("Device = AMAPH1KK-KBR", ...). Device "AMAPH1KK-KBR" selected.  returns 0x00 (0009ms, 13289ms total)
T261C 2404:409 JLINK_ExecCommand("DisableConnectionTimeout", ...).   returns 0x01 (0000ms, 13289ms total)
T261C 2404:409 JLINK_GetHardwareVersion()  returns 0x7530 (0000ms, 13289ms total)
T261C 2404:409 JLINK_GetDLLVersion()  returns 63008 (0000ms, 13289ms total)
T261C 2404:409 JLINK_GetFirmwareString(...) (0000ms, 13289ms total)
T261C 2404:418 JLINK_GetDLLVersion()  returns 63008 (0000ms, 13289ms total)
T261C 2404:418 JLINK_GetCompileDateTime() (0000ms, 13289ms total)
T261C 2404:422 JLINK_GetFirmwareString(...) (0000ms, 13289ms total)
T261C 2404:425 JLINK_GetHardwareVersion()  returns 0x7530 (0000ms, 13289ms total)
T261C 2404:439 JLINK_TIF_Select(JLINKARM_TIF_SWD)  returns 0x00 (0003ms, 13292ms total)
T261C 2404:442 JLINK_SetSpeed(5000) (0000ms, 13292ms total)
T261C 2404:442 JLINK_GetId() >0x10B TIF>Found SW-DP with ID 0x2BA01477 >0x0D TIF> >0x28 TIF> >0x0D TIF> >0x28 TIF> >0x0D TIF> >0x28 TIF> >0x0D TIF> >0x28 TIF> >0x0D TIF> >0x21 TIF> >0x0D TIF> >0x28 TIF>Scanning AP map to find all available APs >0x0D TIF> >0x28 TIF> >0x0D TIF> >0x21 TIF> >0x0D TIF> >0x21 TIF> >0x0D TIF> >0x28 TIF> >0x0D TIF> >0x21 TIF> >0x0D TIF> >0x21 TIF>AP[1]: Stopped AP scan as end of AP map has been reachedAP[0]: AHB-AP (IDR: 0x24770011)Iterating through AP map to find AHB-AP to use
 >0x42 TIF> >0x28 TIF> >0x0D TIF> >0x28 TIF> >0x0D TIF> >0x21 TIF> >0x0D TIF> >0x21 TIF> >0x42 TIF> >0x28 TIF> >0x0D TIF> >0x28 TIF> >0x0D TIF> >0x28 TIF> >0x0D TIF> >0x21 TIF> >0x0D TIF> >0x21 TIF>AP[0]: Core foundAP[0]: AHB-AP ROM base: 0xE00FF000 >0x0D TIF> >0x28 TIF> >0x0D TIF> >0x28 TIF> >0x0D TIF> >0x28 TIF> >0x0D TIF> >0x21 TIF> >0x0D TIF> >0x21 TIF>CPUID register: 0x410FC241. Implementer code: 0x41 (ARM)Found Cortex-M4 r0p1, Little endian. -- CPU_ReadMem(4 bytes @ 0xE000EDF0)
 -- CPU_ReadMem(4 bytes @ 0xE0002000)FPUnit: 6 code (BP) slots and 2 literal slots -- CPU_ReadMem(4 bytes @ 0xE000EDFC) -- CPU_ReadMem(4 bytes @ 0xE0001000) -- CPU_WriteMem(4 bytes @ 0xE0001000) -- CPU_ReadMem(4 bytes @ 0xE000ED88) -- CPU_WriteMem(4 bytes @ 0xE000ED88) -- CPU_ReadMem(4 bytes @ 0xE000ED88) -- CPU_WriteMem(4 bytes @ 0xE000ED88)CoreSight components:ROMTbl[0] @ E00FF000 -- CPU_ReadMem(16 bytes @ 0xE00FF000) -- CPU_ReadMem(16 bytes @ 0xE000EFF0) -- CPU_ReadMem(16 bytes @ 0xE000EFE0)
ROMTbl[0][0]: E000E000, CID: B105E00D, PID: 000BB00C SCS-M7 -- CPU_ReadMem(16 bytes @ 0xE0001FF0) -- CPU_ReadMem(16 bytes @ 0xE0001FE0)ROMTbl[0][1]: E0001000, CID: B105E00D, PID: 003BB002 DWT -- CPU_ReadMem(16 bytes @ 0xE0002FF0) -- CPU_ReadMem(16 bytes @ 0xE0002FE0)ROMTbl[0][2]: E0002000, CID: B105E00D, PID: 002BB003 FPB -- CPU_ReadMem(16 bytes @ 0xE0000FF0) -- CPU_ReadMem(16 bytes @ 0xE0000FE0)ROMTbl[0][3]: E0000000, CID: B105E00D, PID: 003BB001 ITM -- CPU_ReadMem(16 bytes @ 0xE00FF010)
 -- CPU_ReadMem(16 bytes @ 0xE0040FF0) -- CPU_ReadMem(16 bytes @ 0xE0040FE0)ROMTbl[0][4]: E0040000, CID: B105900D, PID: 000BB9A1 TPIU >0x0D TIF> >0x21 TIF>  returns 0x2BA01477 (0297ms, 13589ms total)
T261C 2404:739 JLINK_GetDLLVersion()  returns 63008 (0000ms, 13589ms total)
T261C 2404:739 JLINK_CORE_GetFound()  returns 0xE0000FF (0000ms, 13589ms total)
T261C 2404:739 JLINK_GetDebugInfo(0x100 = JLINKARM_ROM_TABLE_ADDR_INDEX) -- Value=0xE00FF000  returns 0x00 (0000ms, 13589ms total)
T261C 2404:748 JLINK_GetDebugInfo(0x100 = JLINKARM_ROM_TABLE_ADDR_INDEX) -- Value=0xE00FF000  returns 0x00 (0000ms, 13589ms total)
T261C 2404:748 JLINK_GetDebugInfo(0x101 = JLINKARM_DEBUG_INFO_ETM_ADDR_INDEX) -- Value=0x00000000  returns 0x00 (0000ms, 13589ms total)
T261C 2404:748 JLINK_ReadMemEx(0xE0041FF0, 0x0010 Bytes, ..., Flags = 0x02000004) -- CPU_ReadMem(16 bytes @ 0xE0041FF0) - Data: 00 00 00 00 00 00 00 00 00 00 00 00 00 00 00 00  returns 0x10 (0001ms, 13590ms total)
T261C 2404:749 JLINK_GetDebugInfo(0x102 = JLINKARM_DEBUG_INFO_MTB_ADDR_INDEX) -- Value=0x00000000  returns 0x00 (0000ms, 13590ms total)
T261C 2404:750 JLINK_GetDebugInfo(0x103 = JLINKARM_DEBUG_INFO_TPIU_ADDR_INDEX) -- Value=0xE0040000  returns 0x00 (0000ms, 13590ms total)
T261C 2404:750 JLINK_GetDebugInfo(0x104 = JLINKARM_DEBUG_INFO_ITM_ADDR_INDEX) -- Value=0xE0000000  returns 0x00 (0000ms, 13590ms total)
T261C 2404:750 JLINK_GetDebugInfo(0x105 = JLINKARM_DEBUG_INFO_DWT_ADDR_INDEX) -- Value=0xE0001000  returns 0x00 (0000ms, 13590ms total)
T261C 2404:750 JLINK_GetDebugInfo(0x106 = JLINKARM_DEBUG_INFO_FPB_ADDR_INDEX) -- Value=0xE0002000  returns 0x00 (0000ms, 13590ms total)
T261C 2404:750 JLINK_GetDebugInfo(0x107 = JLINKARM_DEBUG_INFO_NVIC_ADDR_INDEX) -- Value=0xE000E000  returns 0x00 (0000ms, 13590ms total)
T261C 2404:750 JLINK_GetDebugInfo(0x10C = JLINKARM_DEBUG_INFO_DBG_ADDR_INDEX) -- Value=0xE000EDF0  returns 0x00 (0000ms, 13590ms total)
T261C 2404:750 JLINK_GetDebugInfo(0x01 = Unknown) -- Value=0x00000001  returns 0x00 (0000ms, 13590ms total)
T261C 2404:750 JLINK_ReadMemU32(0xE000ED00, 0x0001 Items, ...) -- CPU_ReadMem(4 bytes @ 0xE000ED00) - Data: 41 C2 0F 41  returns 0x01 (0002ms, 13592ms total)
T261C 2404:752 JLINK_GetDebugInfo(0x10F = JLINKARM_DEBUG_INFO_HAS_CORTEX_M_SECURITY_EXT_INDEX) -- Value=0x00000000  returns 0x00 (0000ms, 13592ms total)
T261C 2404:752 JLINK_SetResetType(JLINKARM_CM3_RESET_TYPE_NORMAL)  returns JLINKARM_CM3_RESET_TYPE_NORMAL (0000ms, 13592ms total)
T261C 2404:752 JLINK_Reset() -- CPU is running -- CPU_WriteMem(4 bytes @ 0xE000EDF0) -- CPU is running -- CPU_WriteMem(4 bytes @ 0xE000EDFC)Reset: Halt core after reset via DEMCR.VC_CORERESET. >0x35 TIF>Reset: Reset device via AIRCR.SYSRESETREQ. -- CPU is running -- CPU_WriteMem(4 bytes @ 0xE000ED0C) >0x0D TIF> >0x28 TIF> -- CPU_ReadMem(4 bytes @ 0xE000EDF0) -- CPU_ReadMem(4 bytes @ 0xE000EDF0) -- CPU is running -- CPU_WriteMem(4 bytes @ 0xE000EDF0) -- CPU is running -- CPU_WriteMem(4 bytes @ 0xE000EDFC)
 -- CPU_ReadMem(4 bytes @ 0xE000EDF0) -- CPU_WriteMem(4 bytes @ 0xE0002000) -- CPU_ReadMem(4 bytes @ 0xE000EDFC) -- CPU_ReadMem(4 bytes @ 0xE0001000) (0094ms, 13686ms total)
T261C 2404:846 JLINK_Halt()  returns 0x00 (0000ms, 13686ms total)
T261C 2404:846 JLINK_ReadMemU32(0xE000EDF0, 0x0001 Items, ...) -- CPU_ReadMem(4 bytes @ 0xE000EDF0) - Data: 03 00 03 00  returns 0x01 (0002ms, 13688ms total)
T261C 2404:848 JLINK_WriteU32(0xE000EDF0, 0xA05F0003) -- CPU_WriteMem(4 bytes @ 0xE000EDF0)  returns 0x00 (0002ms, 13690ms total)
T261C 2404:850 JLINK_WriteU32(0xE000EDFC, 0x01000000) -- CPU_WriteMem(4 bytes @ 0xE000EDFC)  returns 0x00 (0001ms, 13691ms total)
T261C 2404:898 JLINK_GetHWStatus(...)  returns 0x00 (0001ms, 13692ms total)
T261C 2404:925 JLINK_GetNumBPUnits(Type = 0xFFFFFF00)  returns 0x06 (0000ms, 13692ms total)
T261C 2404:925 JLINK_GetNumBPUnits(Type = 0xF0)  returns 0x2000 (0000ms, 13692ms total)
T261C 2404:925 JLINK_GetNumWPUnits()  returns 0x04 (0000ms, 13692ms total)
T261C 2404:940 JLINK_GetSpeed()  returns 0xA6B (0000ms, 13692ms total)
T261C 2404:946 JLINK_ReadMemU32(0xE000E004, 0x0001 Items, ...) -- CPU_ReadMem(4 bytes @ 0xE000E004) - Data: 00 00 00 00  returns 0x01 (0001ms, 13693ms total)
T261C 2404:947 JLINK_ReadMemU32(0xE000E004, 0x0001 Items, ...) -- CPU_ReadMem(4 bytes @ 0xE000E004) - Data: 00 00 00 00  returns 0x01 (0001ms, 13694ms total)
T261C 2404:948 JLINK_WriteMemEx(0xE0001000, 0x001C Bytes, ..., Flags = 0x02000004) - Data: 01 00 00 00 00 00 00 00 00 00 00 00 00 00 00 00 ... -- CPU_WriteMem(28 bytes @ 0xE0001000)  returns 0x1C (0002ms, 13696ms total)
T261C 2404:950 JLINK_Halt()  returns 0x00 (0000ms, 13696ms total)
T261C 2404:950 JLINK_IsHalted()  returns TRUE (0000ms, 13696ms total)
T261C 2404:954 JLINK_WriteMem(0x10000000, 0x019C Bytes, ...) - Data: 00 BE 0A E0 0D 78 2D 06 68 40 08 24 40 00 00 D3 ... -- CPU_WriteMem(412 bytes @ 0x10000000)  returns 0x19C (0004ms, 13700ms total)
T261C 2404:958 JLINK_WriteReg(R0, 0x00000000)  returns 0x00 (0000ms, 13700ms total)
T261C 2404:958 JLINK_WriteReg(R1, 0x016E3600)  returns 0x00 (0000ms, 13700ms total)
T261C 2404:958 JLINK_WriteReg(R2, 0x00000001)  returns 0x00 (0000ms, 13700ms total)
T261C 2404:958 JLINK_WriteReg(R3, 0x00000000)  returns 0x00 (0000ms, 13700ms total)
T261C 2404:958 JLINK_WriteReg(R4, 0x00000000)  returns 0x00 (0000ms, 13700ms total)
T261C 2404:958 JLINK_WriteReg(R5, 0x00000000)  returns 0x00 (0000ms, 13700ms total)
T261C 2404:958 JLINK_WriteReg(R6, 0x00000000)  returns 0x00 (0000ms, 13700ms total)
T261C 2404:958 JLINK_WriteReg(R7, 0x00000000)  returns 0x00 (0000ms, 13700ms total)
T261C 2404:958 JLINK_WriteReg(R8, 0x00000000)  returns 0x00 (0000ms, 13700ms total)
T261C 2404:958 JLINK_WriteReg(R9, 0x10000178)  returns 0x00 (0000ms, 13700ms total)
T261C 2404:958 JLINK_WriteReg(R10, 0x00000000)  returns 0x00 (0000ms, 13700ms total)
T261C 2404:958 JLINK_WriteReg(R11, 0x00000000)  returns 0x00 (0000ms, 13700ms total)
T261C 2404:958 JLINK_WriteReg(R12, 0x00000000)  returns 0x00 (0000ms, 13700ms total)
T261C 2404:958 JLINK_WriteReg(R13 (SP), 0x10004000)  returns 0x00 (0000ms, 13700ms total)
T261C 2404:958 JLINK_WriteReg(R14, 0x10000001)  returns 0x00 (0000ms, 13700ms total)
T261C 2404:958 JLINK_WriteReg(R15 (PC), 0x10000038)  returns 0x00 (0000ms, 13700ms total)
T261C 2404:958 JLINK_WriteReg(XPSR, 0x01000000)  returns 0x00 (0000ms, 13700ms total)
T261C 2404:958 JLINK_WriteReg(MSP, 0x10004000)  returns 0x00 (0000ms, 13700ms total)
T261C 2404:958 JLINK_WriteReg(PSP, 0x10004000)  returns 0x00 (0000ms, 13700ms total)
T261C 2404:958 JLINK_WriteReg(CFBP, 0x00000000)  returns 0x00 (0000ms, 13700ms total)
T261C 2404:958 JLINK_SetBPEx(Addr = 0x10000000, Type = 0xFFFFFFF2)  returns 0x00000001 (0000ms, 13700ms total)
T261C 2404:958 JLINK_Go() -- CPU_WriteMem(4 bytes @ 0xE0002000) -- CPU_ReadMem(4 bytes @ 0xE0001000) -- CPU_WriteMem(4 bytes @ 0xE0002008) -- CPU_WriteMem(4 bytes @ 0xE000200C) -- CPU_WriteMem(4 bytes @ 0xE0002010) -- CPU_WriteMem(4 bytes @ 0xE0002014) -- CPU_WriteMem(4 bytes @ 0xE0002018) -- CPU_WriteMem(4 bytes @ 0xE000201C) -- CPU_WriteMem(4 bytes @ 0xE0001004) (0008ms, 13708ms total)
T261C 2404:966 JLINK_IsHalted()  returns TRUE (0005ms, 13713ms total)
T261C 2404:971 JLINK_ReadReg(R15 (PC))  returns 0x10000000 (0000ms, 13708ms total)
T261C 2404:971 JLINK_ClrBPEx(BPHandle = 0x00000001)  returns 0x00 (0000ms, 13708ms total)
T261C 2404:971 JLINK_ReadReg(R0)  returns 0x00000000 (0000ms, 13708ms total)
T261C 2404:972 JLINK_WriteReg(R0, 0x00000000)  returns 0x00 (0000ms, 13708ms total)
T261C 2404:972 JLINK_WriteReg(R1, 0x00002000)  returns 0x00 (0000ms, 13708ms total)
T261C 2404:972 JLINK_WriteReg(R2, 0x000000FF)  returns 0x00 (0000ms, 13708ms total)
T261C 2404:972 JLINK_WriteReg(R3, 0x00000000)  returns 0x00 (0000ms, 13708ms total)
T261C 2404:972 JLINK_WriteReg(R4, 0x00000000)  returns 0x00 (0000ms, 13708ms total)
T261C 2404:972 JLINK_WriteReg(R5, 0x00000000)  returns 0x00 (0000ms, 13708ms total)
T261C 2404:972 JLINK_WriteReg(R6, 0x00000000)  returns 0x00 (0000ms, 13708ms total)
T261C 2404:972 JLINK_WriteReg(R7, 0x00000000)  returns 0x00 (0000ms, 13708ms total)
T261C 2404:972 JLINK_WriteReg(R8, 0x00000000)  returns 0x00 (0000ms, 13708ms total)
T261C 2404:972 JLINK_WriteReg(R9, 0x10000178)  returns 0x00 (0000ms, 13708ms total)
T261C 2404:972 JLINK_WriteReg(R10, 0x00000000)  returns 0x00 (0000ms, 13708ms total)
T261C 2404:972 JLINK_WriteReg(R11, 0x00000000)  returns 0x00 (0000ms, 13708ms total)
T261C 2404:972 JLINK_WriteReg(R12, 0x00000000)  returns 0x00 (0000ms, 13708ms total)
T261C 2404:972 JLINK_WriteReg(R13 (SP), 0x10004000)  returns 0x00 (0000ms, 13708ms total)
T261C 2404:972 JLINK_WriteReg(R14, 0x10000001)  returns 0x00 (0000ms, 13708ms total)
T261C 2404:972 JLINK_WriteReg(R15 (PC), 0x10000020)  returns 0x00 (0000ms, 13708ms total)
T261C 2404:972 JLINK_WriteReg(XPSR, 0x01000000)  returns 0x00 (0000ms, 13708ms total)
T261C 2404:972 JLINK_WriteReg(MSP, 0x10004000)  returns 0x00 (0000ms, 13708ms total)
T261C 2404:972 JLINK_WriteReg(PSP, 0x10004000)  returns 0x00 (0000ms, 13708ms total)
T261C 2404:972 JLINK_WriteReg(CFBP, 0x00000000)  returns 0x00 (0000ms, 13708ms total)
T261C 2404:972 JLINK_SetBPEx(Addr = 0x10000000, Type = 0xFFFFFFF2)  returns 0x00000002 (0000ms, 13708ms total)
T261C 2404:972 JLINK_Go() -- CPU_WriteMem(4 bytes @ 0xE0002000) -- CPU_ReadMem(4 bytes @ 0xE0001000) (0005ms, 13713ms total)
T261C 2404:977 JLINK_IsHalted()  returns TRUE (0004ms, 13717ms total)
T261C 2404:982 JLINK_ReadReg(R15 (PC))  returns 0x10000000 (0000ms, 13713ms total)
T261C 2404:982 JLINK_ClrBPEx(BPHandle = 0x00000002)  returns 0x00 (0000ms, 13713ms total)
T261C 2404:982 JLINK_ReadReg(R0)  returns 0x00000001 (0000ms, 13713ms total)
T261C 2404:982 JLINK_WriteReg(R0, 0x00000000)  returns 0x00 (0000ms, 13713ms total)
T261C 2404:982 JLINK_WriteReg(R1, 0x00002000)  returns 0x00 (0000ms, 13713ms total)
T261C 2404:982 JLINK_WriteReg(R2, 0x000000FF)  returns 0x00 (0000ms, 13713ms total)
T261C 2404:982 JLINK_WriteReg(R3, 0x00000000)  returns 0x00 (0000ms, 13713ms total)
T261C 2404:982 JLINK_WriteReg(R4, 0x00000000)  returns 0x00 (0000ms, 13713ms total)
T261C 2404:982 JLINK_WriteReg(R5, 0x00000000)  returns 0x00 (0000ms, 13713ms total)
T261C 2404:982 JLINK_WriteReg(R6, 0x00000000)  returns 0x00 (0000ms, 13713ms total)
T261C 2404:982 JLINK_WriteReg(R7, 0x00000000)  returns 0x00 (0000ms, 13713ms total)
T261C 2404:982 JLINK_WriteReg(R8, 0x00000000)  returns 0x00 (0000ms, 13713ms total)
T261C 2404:982 JLINK_WriteReg(R9, 0x10000178)  returns 0x00 (0000ms, 13713ms total)
T261C 2404:982 JLINK_WriteReg(R10, 0x00000000)  returns 0x00 (0000ms, 13713ms total)
T261C 2404:982 JLINK_WriteReg(R11, 0x00000000)  returns 0x00 (0000ms, 13713ms total)
T261C 2404:982 JLINK_WriteReg(R12, 0x00000000)  returns 0x00 (0000ms, 13713ms total)
T261C 2404:982 JLINK_WriteReg(R13 (SP), 0x10004000)  returns 0x00 (0000ms, 13713ms total)
T261C 2404:982 JLINK_WriteReg(R14, 0x10000001)  returns 0x00 (0000ms, 13713ms total)
T261C 2404:982 JLINK_WriteReg(R15 (PC), 0x1000005E)  returns 0x00 (0000ms, 13713ms total)
T261C 2404:982 JLINK_WriteReg(XPSR, 0x01000000)  returns 0x00 (0000ms, 13713ms total)
T261C 2404:982 JLINK_WriteReg(MSP, 0x10004000)  returns 0x00 (0000ms, 13713ms total)
T261C 2404:982 JLINK_WriteReg(PSP, 0x10004000)  returns 0x00 (0000ms, 13713ms total)
T261C 2404:982 JLINK_WriteReg(CFBP, 0x00000000)  returns 0x00 (0000ms, 13713ms total)
T261C 2404:982 JLINK_SetBPEx(Addr = 0x10000000, Type = 0xFFFFFFF2)  returns 0x00000003 (0000ms, 13713ms total)
T261C 2404:982 JLINK_Go() -- CPU_WriteMem(4 bytes @ 0xE0002000) -- CPU_ReadMem(4 bytes @ 0xE0001000) (0004ms, 13717ms total)
T261C 2404:986 JLINK_IsHalted()  returns FALSE (0000ms, 13717ms total)
T261C 2405:036 JLINK_IsHalted()  returns TRUE (0004ms, 13721ms total)
T261C 2405:040 JLINK_ReadReg(R15 (PC))  returns 0x10000000 (0000ms, 13717ms total)
T261C 2405:040 JLINK_ClrBPEx(BPHandle = 0x00000003)  returns 0x00 (0000ms, 13717ms total)
T261C 2405:040 JLINK_ReadReg(R0)  returns 0x00000000 (0000ms, 13717ms total)
T261C 2405:041 JLINK_WriteReg(R0, 0x00002000)  returns 0x00 (0000ms, 13717ms total)
T261C 2405:041 JLINK_WriteReg(R1, 0x00002000)  returns 0x00 (0000ms, 13717ms total)
T261C 2405:041 JLINK_WriteReg(R2, 0x000000FF)  returns 0x00 (0000ms, 13717ms total)
T261C 2405:041 JLINK_WriteReg(R3, 0x00000000)  returns 0x00 (0000ms, 13717ms total)
T261C 2405:041 JLINK_WriteReg(R4, 0x00000000)  returns 0x00 (0000ms, 13717ms total)
T261C 2405:041 JLINK_WriteReg(R5, 0x00000000)  returns 0x00 (0000ms, 13717ms total)
T261C 2405:041 JLINK_WriteReg(R6, 0x00000000)  returns 0x00 (0000ms, 13717ms total)
T261C 2405:041 JLINK_WriteReg(R7, 0x00000000)  returns 0x00 (0000ms, 13717ms total)
T261C 2405:041 JLINK_WriteReg(R8, 0x00000000)  returns 0x00 (0000ms, 13717ms total)
T261C 2405:041 JLINK_WriteReg(R9, 0x10000178)  returns 0x00 (0000ms, 13717ms total)
T261C 2405:041 JLINK_WriteReg(R10, 0x00000000)  returns 0x00 (0000ms, 13717ms total)
T261C 2405:041 JLINK_WriteReg(R11, 0x00000000)  returns 0x00 (0000ms, 13717ms total)
T261C 2405:041 JLINK_WriteReg(R12, 0x00000000)  returns 0x00 (0000ms, 13717ms total)
T261C 2405:041 JLINK_WriteReg(R13 (SP), 0x10004000)  returns 0x00 (0000ms, 13717ms total)
T261C 2405:041 JLINK_WriteReg(R14, 0x10000001)  returns 0x00 (0000ms, 13717ms total)
T261C 2405:041 JLINK_WriteReg(R15 (PC), 0x10000020)  returns 0x00 (0000ms, 13717ms total)
T261C 2405:041 JLINK_WriteReg(XPSR, 0x01000000)  returns 0x00 (0000ms, 13717ms total)
T261C 2405:041 JLINK_WriteReg(MSP, 0x10004000)  returns 0x00 (0000ms, 13717ms total)
T261C 2405:041 JLINK_WriteReg(PSP, 0x10004000)  returns 0x00 (0000ms, 13717ms total)
T261C 2405:041 JLINK_WriteReg(CFBP, 0x00000000)  returns 0x00 (0000ms, 13717ms total)
T261C 2405:041 JLINK_SetBPEx(Addr = 0x10000000, Type = 0xFFFFFFF2)  returns 0x00000004 (0000ms, 13717ms total)
T261C 2405:041 JLINK_Go() -- CPU_WriteMem(4 bytes @ 0xE0002000) -- CPU_ReadMem(4 bytes @ 0xE0001000) (0005ms, 13722ms total)
T261C 2405:046 JLINK_IsHalted()  returns TRUE (0004ms, 13726ms total)
T261C 2405:050 JLINK_ReadReg(R15 (PC))  returns 0x10000000 (0000ms, 13722ms total)
T261C 2405:050 JLINK_ClrBPEx(BPHandle = 0x00000004)  returns 0x00 (0000ms, 13722ms total)
T261C 2405:050 JLINK_ReadReg(R0)  returns 0x00000001 (0000ms, 13722ms total)
T261C 2405:050 JLINK_WriteReg(R0, 0x00002000)  returns 0x00 (0000ms, 13722ms total)
T261C 2405:050 JLINK_WriteReg(R1, 0x00002000)  returns 0x00 (0000ms, 13722ms total)
T261C 2405:050 JLINK_WriteReg(R2, 0x000000FF)  returns 0x00 (0000ms, 13722ms total)
T261C 2405:050 JLINK_WriteReg(R3, 0x00000000)  returns 0x00 (0000ms, 13722ms total)
T261C 2405:050 JLINK_WriteReg(R4, 0x00000000)  returns 0x00 (0000ms, 13722ms total)
T261C 2405:050 JLINK_WriteReg(R5, 0x00000000)  returns 0x00 (0000ms, 13722ms total)
T261C 2405:050 JLINK_WriteReg(R6, 0x00000000)  returns 0x00 (0000ms, 13722ms total)
T261C 2405:050 JLINK_WriteReg(R7, 0x00000000)  returns 0x00 (0000ms, 13722ms total)
T261C 2405:050 JLINK_WriteReg(R8, 0x00000000)  returns 0x00 (0000ms, 13722ms total)
T261C 2405:050 JLINK_WriteReg(R9, 0x10000178)  returns 0x00 (0000ms, 13722ms total)
T261C 2405:050 JLINK_WriteReg(R10, 0x00000000)  returns 0x00 (0000ms, 13722ms total)
T261C 2405:050 JLINK_WriteReg(R11, 0x00000000)  returns 0x00 (0000ms, 13722ms total)
T261C 2405:050 JLINK_WriteReg(R12, 0x00000000)  returns 0x00 (0000ms, 13722ms total)
T261C 2405:050 JLINK_WriteReg(R13 (SP), 0x10004000)  returns 0x00 (0000ms, 13722ms total)
T261C 2405:050 JLINK_WriteReg(R14, 0x10000001)  returns 0x00 (0000ms, 13722ms total)
T261C 2405:050 JLINK_WriteReg(R15 (PC), 0x1000005E)  returns 0x00 (0000ms, 13722ms total)
T261C 2405:050 JLINK_WriteReg(XPSR, 0x01000000)  returns 0x00 (0000ms, 13722ms total)
T261C 2405:050 JLINK_WriteReg(MSP, 0x10004000)  returns 0x00 (0000ms, 13722ms total)
T261C 2405:050 JLINK_WriteReg(PSP, 0x10004000)  returns 0x00 (0000ms, 13722ms total)
T261C 2405:050 JLINK_WriteReg(CFBP, 0x00000000)  returns 0x00 (0000ms, 13722ms total)
T261C 2405:050 JLINK_SetBPEx(Addr = 0x10000000, Type = 0xFFFFFFF2)  returns 0x00000005 (0000ms, 13722ms total)
T261C 2405:050 JLINK_Go() -- CPU_WriteMem(4 bytes @ 0xE0002000) -- CPU_ReadMem(4 bytes @ 0xE0001000) (0004ms, 13726ms total)
T261C 2405:054 JLINK_IsHalted()  returns FALSE (0001ms, 13727ms total)
T261C 2405:059 JLINK_IsHalted()  returns FALSE (0001ms, 13727ms total)
T261C 2405:061 JLINK_IsHalted()  returns FALSE (0001ms, 13727ms total)
T261C 2405:063 JLINK_IsHalted()  returns FALSE (0001ms, 13727ms total)
T261C 2405:066 JLINK_IsHalted()  returns FALSE (0000ms, 13726ms total)
T261C 2405:068 JLINK_IsHalted()  returns TRUE (0004ms, 13730ms total)
T261C 2405:072 JLINK_ReadReg(R15 (PC))  returns 0x10000000 (0000ms, 13726ms total)
T261C 2405:072 JLINK_ClrBPEx(BPHandle = 0x00000005)  returns 0x00 (0000ms, 13726ms total)
T261C 2405:072 JLINK_ReadReg(R0)  returns 0x00000000 (0000ms, 13726ms total)
T261C 2405:073 JLINK_WriteReg(R0, 0x00004000)  returns 0x00 (0000ms, 13726ms total)
T261C 2405:073 JLINK_WriteReg(R1, 0x00002000)  returns 0x00 (0000ms, 13726ms total)
T261C 2405:073 JLINK_WriteReg(R2, 0x000000FF)  returns 0x00 (0000ms, 13726ms total)
T261C 2405:073 JLINK_WriteReg(R3, 0x00000000)  returns 0x00 (0000ms, 13726ms total)
T261C 2405:073 JLINK_WriteReg(R4, 0x00000000)  returns 0x00 (0000ms, 13726ms total)
T261C 2405:073 JLINK_WriteReg(R5, 0x00000000)  returns 0x00 (0000ms, 13726ms total)
T261C 2405:073 JLINK_WriteReg(R6, 0x00000000)  returns 0x00 (0000ms, 13726ms total)
T261C 2405:073 JLINK_WriteReg(R7, 0x00000000)  returns 0x00 (0000ms, 13726ms total)
T261C 2405:073 JLINK_WriteReg(R8, 0x00000000)  returns 0x00 (0000ms, 13726ms total)
T261C 2405:073 JLINK_WriteReg(R9, 0x10000178)  returns 0x00 (0000ms, 13726ms total)
T261C 2405:073 JLINK_WriteReg(R10, 0x00000000)  returns 0x00 (0000ms, 13726ms total)
T261C 2405:073 JLINK_WriteReg(R11, 0x00000000)  returns 0x00 (0000ms, 13726ms total)
T261C 2405:073 JLINK_WriteReg(R12, 0x00000000)  returns 0x00 (0000ms, 13726ms total)
T261C 2405:073 JLINK_WriteReg(R13 (SP), 0x10004000)  returns 0x00 (0000ms, 13726ms total)
T261C 2405:073 JLINK_WriteReg(R14, 0x10000001)  returns 0x00 (0000ms, 13726ms total)
T261C 2405:073 JLINK_WriteReg(R15 (PC), 0x10000020)  returns 0x00 (0000ms, 13726ms total)
T261C 2405:073 JLINK_WriteReg(XPSR, 0x01000000)  returns 0x00 (0000ms, 13726ms total)
T261C 2405:073 JLINK_WriteReg(MSP, 0x10004000)  returns 0x00 (0000ms, 13726ms total)
T261C 2405:073 JLINK_WriteReg(PSP, 0x10004000)  returns 0x00 (0000ms, 13726ms total)
T261C 2405:073 JLINK_WriteReg(CFBP, 0x00000000)  returns 0x00 (0000ms, 13726ms total)
T261C 2405:074 JLINK_SetBPEx(Addr = 0x10000000, Type = 0xFFFFFFF2)  returns 0x00000006 (0000ms, 13726ms total)
T261C 2405:074 JLINK_Go() -- CPU_WriteMem(4 bytes @ 0xE0002000) -- CPU_ReadMem(4 bytes @ 0xE0001000) (0004ms, 13730ms total)
T261C 2405:078 JLINK_IsHalted()  returns TRUE (0005ms, 13735ms total)
T261C 2405:083 JLINK_ReadReg(R15 (PC))  returns 0x10000000 (0000ms, 13730ms total)
T261C 2405:083 JLINK_ClrBPEx(BPHandle = 0x00000006)  returns 0x00 (0000ms, 13730ms total)
T261C 2405:083 JLINK_ReadReg(R0)  returns 0x00000001 (0000ms, 13730ms total)
T261C 2405:083 JLINK_WriteReg(R0, 0x00004000)  returns 0x00 (0000ms, 13730ms total)
T261C 2405:083 JLINK_WriteReg(R1, 0x00002000)  returns 0x00 (0000ms, 13730ms total)
T261C 2405:083 JLINK_WriteReg(R2, 0x000000FF)  returns 0x00 (0000ms, 13730ms total)
T261C 2405:083 JLINK_WriteReg(R3, 0x00000000)  returns 0x00 (0001ms, 13731ms total)
T261C 2405:084 JLINK_WriteReg(R4, 0x00000000)  returns 0x00 (0000ms, 13731ms total)
T261C 2405:084 JLINK_WriteReg(R5, 0x00000000)  returns 0x00 (0000ms, 13731ms total)
T261C 2405:084 JLINK_WriteReg(R6, 0x00000000)  returns 0x00 (0000ms, 13731ms total)
T261C 2405:084 JLINK_WriteReg(R7, 0x00000000)  returns 0x00 (0000ms, 13731ms total)
T261C 2405:084 JLINK_WriteReg(R8, 0x00000000)  returns 0x00 (0000ms, 13731ms total)
T261C 2405:084 JLINK_WriteReg(R9, 0x10000178)  returns 0x00 (0000ms, 13731ms total)
T261C 2405:084 JLINK_WriteReg(R10, 0x00000000)  returns 0x00 (0000ms, 13731ms total)
T261C 2405:084 JLINK_WriteReg(R11, 0x00000000)  returns 0x00 (0000ms, 13731ms total)
T261C 2405:084 JLINK_WriteReg(R12, 0x00000000)  returns 0x00 (0000ms, 13731ms total)
T261C 2405:084 JLINK_WriteReg(R13 (SP), 0x10004000)  returns 0x00 (0000ms, 13731ms total)
T261C 2405:084 JLINK_WriteReg(R14, 0x10000001)  returns 0x00 (0000ms, 13731ms total)
T261C 2405:084 JLINK_WriteReg(R15 (PC), 0x1000005E)  returns 0x00 (0000ms, 13731ms total)
T261C 2405:084 JLINK_WriteReg(XPSR, 0x01000000)  returns 0x00 (0000ms, 13731ms total)
T261C 2405:084 JLINK_WriteReg(MSP, 0x10004000)  returns 0x00 (0000ms, 13731ms total)
T261C 2405:084 JLINK_WriteReg(PSP, 0x10004000)  returns 0x00 (0000ms, 13731ms total)
T261C 2405:084 JLINK_WriteReg(CFBP, 0x00000000)  returns 0x00 (0000ms, 13731ms total)
T261C 2405:084 JLINK_SetBPEx(Addr = 0x10000000, Type = 0xFFFFFFF2)  returns 0x00000007 (0000ms, 13731ms total)
T261C 2405:084 JLINK_Go() -- CPU_WriteMem(4 bytes @ 0xE0002000) -- CPU_ReadMem(4 bytes @ 0xE0001000) (0003ms, 13734ms total)
T261C 2405:087 JLINK_IsHalted()  returns FALSE (0001ms, 13735ms total)
T261C 2405:090 JLINK_IsHalted()  returns FALSE (0001ms, 13735ms total)
T261C 2405:092 JLINK_IsHalted()  returns FALSE (0001ms, 13735ms total)
T261C 2405:094 JLINK_IsHalted()  returns FALSE (0001ms, 13735ms total)
T261C 2405:102 JLINK_IsHalted()  returns TRUE (0004ms, 13738ms total)
T261C 2405:106 JLINK_ReadReg(R15 (PC))  returns 0x10000000 (0001ms, 13735ms total)
T261C 2405:107 JLINK_ClrBPEx(BPHandle = 0x00000007)  returns 0x00 (0000ms, 13735ms total)
T261C 2405:107 JLINK_ReadReg(R0)  returns 0x00000000 (0000ms, 13735ms total)
T261C 2405:107 JLINK_WriteReg(R0, 0x00006000)  returns 0x00 (0000ms, 13735ms total)
T261C 2405:107 JLINK_WriteReg(R1, 0x00002000)  returns 0x00 (0000ms, 13735ms total)
T261C 2405:107 JLINK_WriteReg(R2, 0x000000FF)  returns 0x00 (0001ms, 13736ms total)
T261C 2405:108 JLINK_WriteReg(R3, 0x00000000)  returns 0x00 (0000ms, 13736ms total)
T261C 2405:108 JLINK_WriteReg(R4, 0x00000000)  returns 0x00 (0000ms, 13736ms total)
T261C 2405:108 JLINK_WriteReg(R5, 0x00000000)  returns 0x00 (0000ms, 13736ms total)
T261C 2405:108 JLINK_WriteReg(R6, 0x00000000)  returns 0x00 (0000ms, 13736ms total)
T261C 2405:108 JLINK_WriteReg(R7, 0x00000000)  returns 0x00 (0000ms, 13736ms total)
T261C 2405:108 JLINK_WriteReg(R8, 0x00000000)  returns 0x00 (0000ms, 13736ms total)
T261C 2405:108 JLINK_WriteReg(R9, 0x10000178)  returns 0x00 (0000ms, 13736ms total)
T261C 2405:108 JLINK_WriteReg(R10, 0x00000000)  returns 0x00 (0000ms, 13736ms total)
T261C 2405:108 JLINK_WriteReg(R11, 0x00000000)  returns 0x00 (0000ms, 13736ms total)
T261C 2405:108 JLINK_WriteReg(R12, 0x00000000)  returns 0x00 (0000ms, 13736ms total)
T261C 2405:108 JLINK_WriteReg(R13 (SP), 0x10004000)  returns 0x00 (0000ms, 13736ms total)
T261C 2405:108 JLINK_WriteReg(R14, 0x10000001)  returns 0x00 (0000ms, 13736ms total)
T261C 2405:108 JLINK_WriteReg(R15 (PC), 0x10000020)  returns 0x00 (0000ms, 13736ms total)
T261C 2405:108 JLINK_WriteReg(XPSR, 0x01000000)  returns 0x00 (0000ms, 13736ms total)
T261C 2405:108 JLINK_WriteReg(MSP, 0x10004000)  returns 0x00 (0000ms, 13736ms total)
T261C 2405:108 JLINK_WriteReg(PSP, 0x10004000)  returns 0x00 (0000ms, 13736ms total)
T261C 2405:108 JLINK_WriteReg(CFBP, 0x00000000)  returns 0x00 (0000ms, 13736ms total)
T261C 2405:108 JLINK_SetBPEx(Addr = 0x10000000, Type = 0xFFFFFFF2)  returns 0x00000008 (0000ms, 13736ms total)
T261C 2405:108 JLINK_Go() -- CPU_WriteMem(4 bytes @ 0xE0002000) -- CPU_ReadMem(4 bytes @ 0xE0001000) (0005ms, 13741ms total)
T261C 2405:113 JLINK_IsHalted()  returns TRUE (0004ms, 13745ms total)
T261C 2405:117 JLINK_ReadReg(R15 (PC))  returns 0x10000000 (0000ms, 13741ms total)
T261C 2405:117 JLINK_ClrBPEx(BPHandle = 0x00000008)  returns 0x00 (0000ms, 13741ms total)
T261C 2405:117 JLINK_ReadReg(R0)  returns 0x00000001 (0000ms, 13741ms total)
T261C 2405:117 JLINK_WriteReg(R0, 0x00006000)  returns 0x00 (0000ms, 13741ms total)
T261C 2405:117 JLINK_WriteReg(R1, 0x00002000)  returns 0x00 (0000ms, 13741ms total)
T261C 2405:117 JLINK_WriteReg(R2, 0x000000FF)  returns 0x00 (0000ms, 13741ms total)
T261C 2405:117 JLINK_WriteReg(R3, 0x00000000)  returns 0x00 (0000ms, 13741ms total)
T261C 2405:117 JLINK_WriteReg(R4, 0x00000000)  returns 0x00 (0000ms, 13741ms total)
T261C 2405:117 JLINK_WriteReg(R5, 0x00000000)  returns 0x00 (0000ms, 13741ms total)
T261C 2405:117 JLINK_WriteReg(R6, 0x00000000)  returns 0x00 (0000ms, 13741ms total)
T261C 2405:117 JLINK_WriteReg(R7, 0x00000000)  returns 0x00 (0000ms, 13741ms total)
T261C 2405:117 JLINK_WriteReg(R8, 0x00000000)  returns 0x00 (0000ms, 13741ms total)
T261C 2405:117 JLINK_WriteReg(R9, 0x10000178)  returns 0x00 (0000ms, 13741ms total)
T261C 2405:117 JLINK_WriteReg(R10, 0x00000000)  returns 0x00 (0000ms, 13741ms total)
T261C 2405:117 JLINK_WriteReg(R11, 0x00000000)  returns 0x00 (0000ms, 13741ms total)
T261C 2405:117 JLINK_WriteReg(R12, 0x00000000)  returns 0x00 (0000ms, 13741ms total)
T261C 2405:117 JLINK_WriteReg(R13 (SP), 0x10004000)  returns 0x00 (0000ms, 13741ms total)
T261C 2405:117 JLINK_WriteReg(R14, 0x10000001)  returns 0x00 (0000ms, 13741ms total)
T261C 2405:117 JLINK_WriteReg(R15 (PC), 0x1000005E)  returns 0x00 (0001ms, 13742ms total)
T261C 2405:118 JLINK_WriteReg(XPSR, 0x01000000)  returns 0x00 (0000ms, 13742ms total)
T261C 2405:118 JLINK_WriteReg(MSP, 0x10004000)  returns 0x00 (0000ms, 13742ms total)
T261C 2405:118 JLINK_WriteReg(PSP, 0x10004000)  returns 0x00 (0000ms, 13742ms total)
T261C 2405:118 JLINK_WriteReg(CFBP, 0x00000000)  returns 0x00 (0000ms, 13742ms total)
T261C 2405:118 JLINK_SetBPEx(Addr = 0x10000000, Type = 0xFFFFFFF2)  returns 0x00000009 (0000ms, 13742ms total)
T261C 2405:118 JLINK_Go() -- CPU_WriteMem(4 bytes @ 0xE0002000) -- CPU_ReadMem(4 bytes @ 0xE0001000) (0003ms, 13745ms total)
T261C 2405:121 JLINK_IsHalted()  returns FALSE (0001ms, 13746ms total)
T261C 2405:124 JLINK_IsHalted()  returns FALSE (0001ms, 13746ms total)
T261C 2405:127 JLINK_IsHalted()  returns FALSE (0001ms, 13746ms total)
T261C 2405:129 JLINK_IsHalted()  returns FALSE (0001ms, 13746ms total)
T261C 2405:132 JLINK_IsHalted()  returns FALSE (0001ms, 13746ms total)
T261C 2405:134 JLINK_IsHalted()  returns FALSE (0002ms, 13747ms total)
T261C 2405:137 JLINK_IsHalted()  returns TRUE (0004ms, 13749ms total)
T261C 2405:141 JLINK_ReadReg(R15 (PC))  returns 0x10000000 (0000ms, 13745ms total)
T261C 2405:141 JLINK_ClrBPEx(BPHandle = 0x00000009)  returns 0x00 (0000ms, 13745ms total)
T261C 2405:141 JLINK_ReadReg(R0)  returns 0x00000000 (0000ms, 13745ms total)
T261C 2405:142 JLINK_WriteReg(R0, 0x00000001)  returns 0x00 (0000ms, 13745ms total)
T261C 2405:142 JLINK_WriteReg(R1, 0x00002000)  returns 0x00 (0000ms, 13745ms total)
T261C 2405:142 JLINK_WriteReg(R2, 0x000000FF)  returns 0x00 (0000ms, 13745ms total)
T261C 2405:142 JLINK_WriteReg(R3, 0x00000000)  returns 0x00 (0000ms, 13745ms total)
T261C 2405:142 JLINK_WriteReg(R4, 0x00000000)  returns 0x00 (0000ms, 13745ms total)
T261C 2405:142 JLINK_WriteReg(R5, 0x00000000)  returns 0x00 (0000ms, 13745ms total)
T261C 2405:142 JLINK_WriteReg(R6, 0x00000000)  returns 0x00 (0000ms, 13745ms total)
T261C 2405:142 JLINK_WriteReg(R7, 0x00000000)  returns 0x00 (0000ms, 13745ms total)
T261C 2405:142 JLINK_WriteReg(R8, 0x00000000)  returns 0x00 (0000ms, 13745ms total)
T261C 2405:142 JLINK_WriteReg(R9, 0x10000178)  returns 0x00 (0000ms, 13745ms total)
T261C 2405:142 JLINK_WriteReg(R10, 0x00000000)  returns 0x00 (0000ms, 13745ms total)
T261C 2405:142 JLINK_WriteReg(R11, 0x00000000)  returns 0x00 (0001ms, 13746ms total)
T261C 2405:143 JLINK_WriteReg(R12, 0x00000000)  returns 0x00 (0000ms, 13746ms total)
T261C 2405:143 JLINK_WriteReg(R13 (SP), 0x10004000)  returns 0x00 (0000ms, 13746ms total)
T261C 2405:143 JLINK_WriteReg(R14, 0x10000001)  returns 0x00 (0000ms, 13746ms total)
T261C 2405:143 JLINK_WriteReg(R15 (PC), 0x1000003C)  returns 0x00 (0000ms, 13746ms total)
T261C 2405:143 JLINK_WriteReg(XPSR, 0x01000000)  returns 0x00 (0000ms, 13746ms total)
T261C 2405:143 JLINK_WriteReg(MSP, 0x10004000)  returns 0x00 (0000ms, 13746ms total)
T261C 2405:143 JLINK_WriteReg(PSP, 0x10004000)  returns 0x00 (0000ms, 13746ms total)
T261C 2405:143 JLINK_WriteReg(CFBP, 0x00000000)  returns 0x00 (0000ms, 13746ms total)
T261C 2405:143 JLINK_SetBPEx(Addr = 0x10000000, Type = 0xFFFFFFF2)  returns 0x0000000A (0000ms, 13746ms total)
T261C 2405:143 JLINK_Go() -- CPU_WriteMem(4 bytes @ 0xE0002000) -- CPU_ReadMem(4 bytes @ 0xE0001000) (0004ms, 13750ms total)
T261C 2405:147 JLINK_IsHalted()  returns TRUE (0004ms, 13754ms total)
T261C 2405:152 JLINK_ReadReg(R15 (PC))  returns 0x10000000 (0000ms, 13750ms total)
T261C 2405:152 JLINK_ClrBPEx(BPHandle = 0x0000000A)  returns 0x00 (0000ms, 13750ms total)
T261C 2405:152 JLINK_ReadReg(R0)  returns 0x00000000 (0000ms, 13750ms total)
T261C 2405:235 JLINK_WriteMem(0x10000000, 0x019C Bytes, ...) - Data: 00 BE 0A E0 0D 78 2D 06 68 40 08 24 40 00 00 D3 ... -- CPU_WriteMem(412 bytes @ 0x10000000)  returns 0x19C (0004ms, 13754ms total)
T261C 2405:240 JLINK_WriteReg(R0, 0x00000000)  returns 0x00 (0000ms, 13754ms total)
T261C 2405:240 JLINK_WriteReg(R1, 0x016E3600)  returns 0x00 (0000ms, 13754ms total)
T261C 2405:240 JLINK_WriteReg(R2, 0x00000002)  returns 0x00 (0000ms, 13754ms total)
T261C 2405:240 JLINK_WriteReg(R3, 0x00000000)  returns 0x00 (0000ms, 13754ms total)
T261C 2405:240 JLINK_WriteReg(R4, 0x00000000)  returns 0x00 (0000ms, 13754ms total)
T261C 2405:240 JLINK_WriteReg(R5, 0x00000000)  returns 0x00 (0000ms, 13754ms total)
T261C 2405:240 JLINK_WriteReg(R6, 0x00000000)  returns 0x00 (0000ms, 13754ms total)
T261C 2405:240 JLINK_WriteReg(R7, 0x00000000)  returns 0x00 (0000ms, 13754ms total)
T261C 2405:240 JLINK_WriteReg(R8, 0x00000000)  returns 0x00 (0000ms, 13754ms total)
T261C 2405:240 JLINK_WriteReg(R9, 0x10000178)  returns 0x00 (0001ms, 13755ms total)
T261C 2405:241 JLINK_WriteReg(R10, 0x00000000)  returns 0x00 (0000ms, 13755ms total)
T261C 2405:241 JLINK_WriteReg(R11, 0x00000000)  returns 0x00 (0000ms, 13755ms total)
T261C 2405:241 JLINK_WriteReg(R12, 0x00000000)  returns 0x00 (0000ms, 13755ms total)
T261C 2405:241 JLINK_WriteReg(R13 (SP), 0x10004000)  returns 0x00 (0000ms, 13755ms total)
T261C 2405:241 JLINK_WriteReg(R14, 0x10000001)  returns 0x00 (0000ms, 13755ms total)
T261C 2405:241 JLINK_WriteReg(R15 (PC), 0x10000038)  returns 0x00 (0000ms, 13755ms total)
T261C 2405:241 JLINK_WriteReg(XPSR, 0x01000000)  returns 0x00 (0000ms, 13755ms total)
T261C 2405:241 JLINK_WriteReg(MSP, 0x10004000)  returns 0x00 (0000ms, 13755ms total)
T261C 2405:241 JLINK_WriteReg(PSP, 0x10004000)  returns 0x00 (0000ms, 13755ms total)
T261C 2405:241 JLINK_WriteReg(CFBP, 0x00000000)  returns 0x00 (0000ms, 13755ms total)
T261C 2405:241 JLINK_SetBPEx(Addr = 0x10000000, Type = 0xFFFFFFF2)  returns 0x0000000B (0000ms, 13755ms total)
T261C 2405:241 JLINK_Go() -- CPU_WriteMem(4 bytes @ 0xE0002000) -- CPU_ReadMem(4 bytes @ 0xE0001000) (0005ms, 13760ms total)
T261C 2405:246 JLINK_IsHalted()  returns TRUE (0006ms, 13766ms total)
T261C 2405:252 JLINK_ReadReg(R15 (PC))  returns 0x10000000 (0000ms, 13760ms total)
T261C 2405:252 JLINK_ClrBPEx(BPHandle = 0x0000000B)  returns 0x00 (0000ms, 13760ms total)
T261C 2405:252 JLINK_ReadReg(R0)  returns 0x00000000 (0000ms, 13760ms total)
T261C 2405:255 JLINK_WriteMem(0x1000099C, 0x0264 Bytes, ...) - Data: D8 91 03 10 C1 00 00 00 DD 00 00 00 A9 3A 00 00 ... -- CPU_WriteMem(612 bytes @ 0x1000099C)  returns 0x264 (0004ms, 13764ms total)
T261C 2405:260 JLINK_WriteMem(0x10000C00, 0x0400 Bytes, ...) - Data: 3C BF 20 46 64 68 F8 D3 01 68 0A 18 AA 42 18 BF ... -- CPU_WriteMem(1024 bytes @ 0x10000C00)  returns 0x400 (0007ms, 13771ms total)
T261C 2405:267 JLINK_WriteMem(0x10001000, 0x0400 Bytes, ...) - Data: 70 47 10 B5 04 46 AF F3 00 80 20 46 BD E8 10 40 ... -- CPU_WriteMem(1024 bytes @ 0x10001000)  returns 0x400 (0007ms, 13778ms total)
T261C 2405:275 JLINK_WriteMem(0x10001400, 0x0400 Bytes, ...) - Data: 50 46 08 B0 BD EC 04 8B 01 B0 BD E8 F0 4F FF F7 ... -- CPU_WriteMem(1024 bytes @ 0x10001400)  returns 0x400 (0007ms, 13785ms total)
T261C 2405:283 JLINK_WriteMem(0x10001800, 0x0400 Bytes, ...) - Data: 42 D1 58 E0 B0 46 83 1B 00 26 00 22 0B EB 06 05 ... -- CPU_WriteMem(1024 bytes @ 0x10001800)  returns 0x400 (0007ms, 13792ms total)
T261C 2405:290 JLINK_WriteMem(0x10001C00, 0x0400 Bytes, ...) - Data: 68 0A 03 F0 CB FD 51 EC 10 0B 04 F0 39 FF DD F8 ... -- CPU_WriteMem(1024 bytes @ 0x10001C00)  returns 0x400 (0008ms, 13800ms total)
T261C 2405:298 JLINK_WriteMem(0x10002000, 0x0400 Bytes, ...) - Data: 92 ED 00 0A 0D 9A 91 ED 00 1A 06 EB 80 01 91 ED ... -- CPU_WriteMem(1024 bytes @ 0x10002000)  returns 0x400 (0007ms, 13807ms total)
T261C 2405:305 JLINK_WriteMem(0x10002400, 0x0400 Bytes, ...) - Data: 3F FE 4A 46 53 46 04 F0 3B FE 41 EC 18 0B B0 EE ... -- CPU_WriteMem(1024 bytes @ 0x10002400)  returns 0x400 (0008ms, 13815ms total)
T261C 2405:313 JLINK_WriteMem(0x10002800, 0x019C Bytes, ...) - Data: 23 EE 00 0A A1 EE 03 5A A1 EE 42 0A 34 EE 45 4A ... -- CPU_WriteMem(412 bytes @ 0x10002800)  returns 0x19C (0004ms, 13819ms total)
T261C 2405:317 JLINK_WriteReg(R0, 0x00000000)  returns 0x00 (0000ms, 13819ms total)
T261C 2405:318 JLINK_WriteReg(R1, 0x00002000)  returns 0x00 (0000ms, 13820ms total)
T261C 2405:318 JLINK_WriteReg(R2, 0x1000099C)  returns 0x00 (0000ms, 13820ms total)
T261C 2405:318 JLINK_WriteReg(R3, 0x00000000)  returns 0x00 (0000ms, 13820ms total)
T261C 2405:318 JLINK_WriteReg(R4, 0x00000000)  returns 0x00 (0000ms, 13820ms total)
T261C 2405:319 JLINK_WriteReg(R5, 0x00000000)  returns 0x00 (0000ms, 13821ms total)
T261C 2405:319 JLINK_WriteReg(R6, 0x00000000)  returns 0x00 (0000ms, 13821ms total)
T261C 2405:319 JLINK_WriteReg(R7, 0x00000000)  returns 0x00 (0000ms, 13821ms total)
T261C 2405:319 JLINK_WriteReg(R8, 0x00000000)  returns 0x00 (0000ms, 13821ms total)
T261C 2405:319 JLINK_WriteReg(R9, 0x10000178)  returns 0x00 (0000ms, 13821ms total)
T261C 2405:319 JLINK_WriteReg(R10, 0x00000000)  returns 0x00 (0000ms, 13821ms total)
T261C 2405:319 JLINK_WriteReg(R11, 0x00000000)  returns 0x00 (0000ms, 13821ms total)
T261C 2405:319 JLINK_WriteReg(R12, 0x00000000)  returns 0x00 (0000ms, 13821ms total)
T261C 2405:319 JLINK_WriteReg(R13 (SP), 0x10004000)  returns 0x00 (0000ms, 13821ms total)
T261C 2405:319 JLINK_WriteReg(R14, 0x10000001)  returns 0x00 (0000ms, 13821ms total)
T261C 2405:319 JLINK_WriteReg(R15 (PC), 0x1000007C)  returns 0x00 (0001ms, 13822ms total)
T261C 2405:320 JLINK_WriteReg(XPSR, 0x01000000)  returns 0x00 (0000ms, 13822ms total)
T261C 2405:320 JLINK_WriteReg(MSP, 0x10004000)  returns 0x00 (0000ms, 13822ms total)
T261C 2405:320 JLINK_WriteReg(PSP, 0x10004000)  returns 0x00 (0000ms, 13822ms total)
T261C 2405:320 JLINK_WriteReg(CFBP, 0x00000000)  returns 0x00 (0000ms, 13822ms total)
T261C 2405:320 JLINK_SetBPEx(Addr = 0x10000000, Type = 0xFFFFFFF2)  returns 0x0000000C (0000ms, 13822ms total)
T261C 2405:320 JLINK_Go() -- CPU_WriteMem(4 bytes @ 0xE0002000) -- CPU_ReadMem(4 bytes @ 0xE0001000) (0005ms, 13827ms total)
T261C 2405:325 JLINK_IsHalted()  returns FALSE (0002ms, 13829ms total)
T261C 2405:351 JLINK_IsHalted()  returns FALSE (0001ms, 13828ms total)
T261C 2405:355 JLINK_IsHalted()  returns TRUE (0004ms, 13831ms total)
T261C 2405:359 JLINK_ReadReg(R15 (PC))  returns 0x10000000 (0001ms, 13828ms total)
T261C 2405:360 JLINK_ClrBPEx(BPHandle = 0x0000000C)  returns 0x00 (0000ms, 13828ms total)
T261C 2405:360 JLINK_ReadReg(R0)  returns 0x00000000 (0000ms, 13828ms total)
T261C 2405:363 JLINK_WriteMem(0x1000099C, 0x0264 Bytes, ...) - Data: 8C 00 20 EE 01 5A 23 EE 00 0A A2 EE 03 5A A2 EE ... -- CPU_WriteMem(612 bytes @ 0x1000099C)  returns 0x264 (0005ms, 13833ms total)
T261C 2405:369 JLINK_WriteMem(0x10000C00, 0x0400 Bytes, ...) - Data: 0C B0 BD E8 F0 8F 4F F0 01 0C 60 46 0C B0 BD E8 ... -- CPU_WriteMem(1024 bytes @ 0x10000C00)  returns 0x400 (0007ms, 13840ms total)
T261C 2405:376 JLINK_WriteMem(0x10001000, 0x0400 Bytes, ...) - Data: 00 00 00 00 2D E9 F0 4F 91 B0 0D 46 04 21 04 46 ... -- CPU_WriteMem(1024 bytes @ 0x10001000)  returns 0x400 (0008ms, 13848ms total)
T261C 2405:384 JLINK_WriteMem(0x10001400, 0x0400 Bytes, ...) - Data: 33 46 03 F0 3D FE 03 F0 3B FB 29 46 01 9D 05 9A ... -- CPU_WriteMem(1024 bytes @ 0x10001400)  returns 0x400 (0007ms, 13855ms total)
T261C 2405:391 JLINK_WriteMem(0x10001800, 0x0400 Bytes, ...) - Data: 04 33 42 E9 02 11 C2 E9 00 11 10 32 9C 42 F7 D1 ... -- CPU_WriteMem(1024 bytes @ 0x10001800)  returns 0x400 (0008ms, 13863ms total)
T261C 2405:399 JLINK_WriteMem(0x10001C00, 0x0400 Bytes, ...) - Data: FF F7 F0 F9 DD F8 0C C0 B9 F1 01 0F 31 46 C0 F2 ... -- CPU_WriteMem(1024 bytes @ 0x10001C00)  returns 0x400 (0008ms, 13871ms total)
T261C 2405:409 JLINK_WriteMem(0x10002000, 0x0400 Bytes, ...) - Data: B0 EE 48 0A F0 EE 68 0A 01 F0 C8 FB 51 EC 10 0B ... -- CPU_WriteMem(1024 bytes @ 0x10002000)  returns 0x400 (0007ms, 13878ms total)
T261C 2405:416 JLINK_WriteMem(0x10002400, 0x0400 Bytes, ...) - Data: 10 2B 02 F0 3D FE 02 F0 9D FD 01 46 0B A0 1C B0 ... -- CPU_WriteMem(1024 bytes @ 0x10002400)  returns 0x400 (0008ms, 13886ms total)
T261C 2405:424 JLINK_WriteMem(0x10002800, 0x019C Bytes, ...) - Data: 66 00 66 00 66 00 66 00 66 00 66 00 66 00 81 00 ... -- CPU_WriteMem(412 bytes @ 0x10002800)  returns 0x19C (0005ms, 13891ms total)
T261C 2405:429 JLINK_WriteReg(R0, 0x00002000)  returns 0x00 (0000ms, 13891ms total)
T261C 2405:429 JLINK_WriteReg(R1, 0x00002000)  returns 0x00 (0000ms, 13891ms total)
T261C 2405:429 JLINK_WriteReg(R2, 0x1000099C)  returns 0x00 (0000ms, 13891ms total)
T261C 2405:429 JLINK_WriteReg(R3, 0x00000000)  returns 0x00 (0000ms, 13891ms total)
T261C 2405:429 JLINK_WriteReg(R4, 0x00000000)  returns 0x00 (0000ms, 13891ms total)
T261C 2405:429 JLINK_WriteReg(R5, 0x00000000)  returns 0x00 (0000ms, 13891ms total)
T261C 2405:429 JLINK_WriteReg(R6, 0x00000000)  returns 0x00 (0000ms, 13891ms total)
T261C 2405:429 JLINK_WriteReg(R7, 0x00000000)  returns 0x00 (0000ms, 13891ms total)
T261C 2405:429 JLINK_WriteReg(R8, 0x00000000)  returns 0x00 (0000ms, 13891ms total)
T261C 2405:429 JLINK_WriteReg(R9, 0x10000178)  returns 0x00 (0000ms, 13891ms total)
T261C 2405:429 JLINK_WriteReg(R10, 0x00000000)  returns 0x00 (0000ms, 13891ms total)
T261C 2405:429 JLINK_WriteReg(R11, 0x00000000)  returns 0x00 (0000ms, 13891ms total)
T261C 2405:430 JLINK_WriteReg(R12, 0x00000000)  returns 0x00 (0000ms, 13892ms total)
T261C 2405:430 JLINK_WriteReg(R13 (SP), 0x10004000)  returns 0x00 (0000ms, 13892ms total)
T261C 2405:430 JLINK_WriteReg(R14, 0x10000001)  returns 0x00 (0000ms, 13892ms total)
T261C 2405:430 JLINK_WriteReg(R15 (PC), 0x1000007C)  returns 0x00 (0000ms, 13892ms total)
T261C 2405:430 JLINK_WriteReg(XPSR, 0x01000000)  returns 0x00 (0000ms, 13892ms total)
T261C 2405:430 JLINK_WriteReg(MSP, 0x10004000)  returns 0x00 (0000ms, 13892ms total)
T261C 2405:430 JLINK_WriteReg(PSP, 0x10004000)  returns 0x00 (0000ms, 13892ms total)
T261C 2405:430 JLINK_WriteReg(CFBP, 0x00000000)  returns 0x00 (0000ms, 13892ms total)
T261C 2405:430 JLINK_SetBPEx(Addr = 0x10000000, Type = 0xFFFFFFF2)  returns 0x0000000D (0000ms, 13892ms total)
T261C 2405:430 JLINK_Go() -- CPU_WriteMem(4 bytes @ 0xE0002000) -- CPU_ReadMem(4 bytes @ 0xE0001000) (0007ms, 13899ms total)
T261C 2405:437 JLINK_IsHalted()  returns FALSE (0002ms, 13901ms total)
T261C 2405:449 JLINK_IsHalted()  returns FALSE (0002ms, 13901ms total)
T261C 2405:452 JLINK_IsHalted()  returns FALSE (0001ms, 13900ms total)
T261C 2405:455 JLINK_IsHalted()  returns FALSE (0001ms, 13900ms total)
T261C 2405:458 JLINK_IsHalted()  returns FALSE (0001ms, 13900ms total)
T261C 2405:461 JLINK_IsHalted()  returns FALSE (0001ms, 13900ms total)
T261C 2405:463 JLINK_IsHalted()  returns FALSE (0001ms, 13900ms total)
T261C 2405:466 JLINK_IsHalted()  returns FALSE (0001ms, 13900ms total)
T261C 2405:469 JLINK_IsHalted()  returns TRUE (0004ms, 13903ms total)
T261C 2405:473 JLINK_ReadReg(R15 (PC))  returns 0x10000000 (0001ms, 13900ms total)
T261C 2405:474 JLINK_ClrBPEx(BPHandle = 0x0000000D)  returns 0x00 (0000ms, 13900ms total)
T261C 2405:474 JLINK_ReadReg(R0)  returns 0x00000000 (0000ms, 13900ms total)
T261C 2405:477 JLINK_WriteMem(0x1000099C, 0x0264 Bytes, ...) - Data: 23 0B 80 EA E2 73 42 EB E2 70 80 EA E2 7E 03 98 ... -- CPU_WriteMem(612 bytes @ 0x1000099C)  returns 0x264 (0005ms, 13905ms total)
T261C 2405:482 JLINK_WriteMem(0x10000C00, 0x0400 Bytes, ...) - Data: 10 40 C3 08 03 EB 83 03 A1 EB 43 01 00 23 06 31 ... -- CPU_WriteMem(1024 bytes @ 0x10000C00)  returns 0x400 (0008ms, 13913ms total)
T261C 2405:490 JLINK_WriteMem(0x10001000, 0x0400 Bytes, ...) - Data: 00 03 C9 08 41 EA 43 71 A1 FB 02 76 01 FB 05 66 ... -- CPU_WriteMem(1024 bytes @ 0x10001000)  returns 0x400 (0008ms, 13921ms total)
T261C 2405:498 JLINK_WriteMem(0x10001400, 0x0400 Bytes, ...) - Data: D0 06 00 21 06 FB 0E 70 37 46 00 F1 30 02 07 98 ... -- CPU_WriteMem(1024 bytes @ 0x10001400)  returns 0x400 (0007ms, 13928ms total)
T261C 2405:505 JLINK_WriteMem(0x10001800, 0x0400 Bytes, ...) - Data: 9D ED 02 1B 9D ED 00 0B 02 28 17 D0 01 20 00 F0 ... -- CPU_WriteMem(1024 bytes @ 0x10001800)  returns 0x400 (0008ms, 13936ms total)
T261C 2405:514 JLINK_WriteMem(0x10001C00, 0x0400 Bytes, ...) - Data: 3F FA 41 EC 18 0B 40 46 01 F0 E0 F9 9F ED 4D 1B ... -- CPU_WriteMem(1024 bytes @ 0x10001C00)  returns 0x400 (0007ms, 13943ms total)
T261C 2405:521 JLINK_WriteMem(0x10002000, 0x0400 Bytes, ...) - Data: 9D ED 0A 0B BD EC 0A 8B 05 B0 30 BD 53 EC 10 2B ... -- CPU_WriteMem(1024 bytes @ 0x10002000)  returns 0x400 (0008ms, 13951ms total)
T261C 2405:529 JLINK_WriteMem(0x10002400, 0x0400 Bytes, ...) - Data: 10 80 72 B6 00 90 DC F8 00 00 11 F5 80 3F 08 BF ... -- CPU_WriteMem(1024 bytes @ 0x10002400)  returns 0x400 (0008ms, 13959ms total)
T261C 2405:537 JLINK_WriteMem(0x10002800, 0x019C Bytes, ...) - Data: C1 F8 00 21 D1 F8 00 21 02 F0 0F 03 0A 4A 01 2B ... -- CPU_WriteMem(412 bytes @ 0x10002800)  returns 0x19C (0004ms, 13963ms total)
T261C 2405:541 JLINK_WriteReg(R0, 0x00004000)  returns 0x00 (0001ms, 13964ms total)
T261C 2405:542 JLINK_WriteReg(R1, 0x00002000)  returns 0x00 (0000ms, 13964ms total)
T261C 2405:542 JLINK_WriteReg(R2, 0x1000099C)  returns 0x00 (0000ms, 13964ms total)
T261C 2405:542 JLINK_WriteReg(R3, 0x00000000)  returns 0x00 (0000ms, 13964ms total)
T261C 2405:542 JLINK_WriteReg(R4, 0x00000000)  returns 0x00 (0000ms, 13964ms total)
T261C 2405:542 JLINK_WriteReg(R5, 0x00000000)  returns 0x00 (0000ms, 13964ms total)
T261C 2405:542 JLINK_WriteReg(R6, 0x00000000)  returns 0x00 (0000ms, 13964ms total)
T261C 2405:542 JLINK_WriteReg(R7, 0x00000000)  returns 0x00 (0000ms, 13964ms total)
T261C 2405:542 JLINK_WriteReg(R8, 0x00000000)  returns 0x00 (0000ms, 13964ms total)
T261C 2405:542 JLINK_WriteReg(R9, 0x10000178)  returns 0x00 (0000ms, 13964ms total)
T261C 2405:542 JLINK_WriteReg(R10, 0x00000000)  returns 0x00 (0000ms, 13964ms total)
T261C 2405:542 JLINK_WriteReg(R11, 0x00000000)  returns 0x00 (0000ms, 13964ms total)
T261C 2405:542 JLINK_WriteReg(R12, 0x00000000)  returns 0x00 (0000ms, 13964ms total)
T261C 2405:542 JLINK_WriteReg(R13 (SP), 0x10004000)  returns 0x00 (0000ms, 13964ms total)
T261C 2405:542 JLINK_WriteReg(R14, 0x10000001)  returns 0x00 (0001ms, 13965ms total)
T261C 2405:543 JLINK_WriteReg(R15 (PC), 0x1000007C)  returns 0x00 (0000ms, 13965ms total)
T261C 2405:543 JLINK_WriteReg(XPSR, 0x01000000)  returns 0x00 (0000ms, 13965ms total)
T261C 2405:543 JLINK_WriteReg(MSP, 0x10004000)  returns 0x00 (0000ms, 13965ms total)
T261C 2405:543 JLINK_WriteReg(PSP, 0x10004000)  returns 0x00 (0000ms, 13965ms total)
T261C 2405:543 JLINK_WriteReg(CFBP, 0x00000000)  returns 0x00 (0000ms, 13965ms total)
T261C 2405:543 JLINK_SetBPEx(Addr = 0x10000000, Type = 0xFFFFFFF2)  returns 0x0000000E (0000ms, 13965ms total)
T261C 2405:543 JLINK_Go() -- CPU_WriteMem(4 bytes @ 0xE0002000) -- CPU_ReadMem(4 bytes @ 0xE0001000) (0005ms, 13970ms total)
T261C 2405:549 JLINK_IsHalted()  returns FALSE (0002ms, 13972ms total)
T261C 2405:620 JLINK_IsHalted()  returns TRUE (0004ms, 13974ms total)
T261C 2405:624 JLINK_ReadReg(R15 (PC))  returns 0x10000000 (0000ms, 13970ms total)
T261C 2405:624 JLINK_ClrBPEx(BPHandle = 0x0000000E)  returns 0x00 (0000ms, 13970ms total)
T261C 2405:624 JLINK_ReadReg(R0)  returns 0x00000000 (0000ms, 13970ms total)
T261C 2405:626 JLINK_WriteMem(0x1000099C, 0x0264 Bytes, ...) - Data: 02 69 22 61 82 68 C4 F8 F0 20 02 7B 52 1E 91 40 ... -- CPU_WriteMem(612 bytes @ 0x1000099C)  returns 0x264 (0005ms, 13975ms total)
T261C 2405:631 JLINK_WriteMem(0x10000C00, 0x0400 Bytes, ...) - Data: A1 F1 C0 41 00 F0 34 BB 9E EA 44 5F 08 D0 11 EA ... -- CPU_WriteMem(1024 bytes @ 0x10000C00)  returns 0x400 (0006ms, 13981ms total)
T261C 2405:638 JLINK_WriteMem(0x10001000, 0x0400 Bytes, ...) - Data: B0 FA 80 F3 10 FA 03 F1 08 BF 70 47 C3 F1 1D 03 ... -- CPU_WriteMem(1024 bytes @ 0x10001000)  returns 0x400 (0007ms, 13988ms total)
T261C 2405:645 JLINK_WriteMem(0x10001400, 0x0400 Bytes, ...) - Data: 01 EB 04 51 10 BD 49 10 4F EA 30 00 01 EB 04 51 ... -- CPU_WriteMem(1024 bytes @ 0x10001400)  returns 0x400 (0007ms, 13995ms total)
T261C 2405:652 JLINK_WriteMem(0x10001800, 0x0400 Bytes, ...) - Data: FF FF FF FF FF FF FF FF FF FF FF FF FF FF FF FF ... -- CPU_WriteMem(1024 bytes @ 0x10001800)  returns 0x400 (0007ms, 14002ms total)
T261C 2405:659 JLINK_WriteMem(0x10001C00, 0x0400 Bytes, ...) - Data: FF FF FF FF FF FF FF FF FF FF FF FF FF FF FF FF ... -- CPU_WriteMem(1024 bytes @ 0x10001C00)  returns 0x400 (0007ms, 14009ms total)
T261C 2405:666 JLINK_WriteMem(0x10002000, 0x0400 Bytes, ...) - Data: FF FF FF FF FF FF FF FF FF FF FF FF FF FF FF FF ... -- CPU_WriteMem(1024 bytes @ 0x10002000)  returns 0x400 (0007ms, 14016ms total)
T261C 2405:673 JLINK_WriteMem(0x10002400, 0x0400 Bytes, ...) - Data: FF FF FF FF FF FF FF FF FF FF FF FF FF FF FF FF ... -- CPU_WriteMem(1024 bytes @ 0x10002400)  returns 0x400 (0007ms, 14023ms total)
